T39BC 000:006.461   SEGGER J-Link V8.64 Log File
T39BC 000:006.587   DLL Compiled: Aug 28 2025 09:59:31
T39BC 000:006.591   Logging started @ 2026-08-29 06:28
T39BC 000:006.594   Process: F:\Keil5\UV4\UV4.exe
T39BC 000:006.601 - 6.598ms 
T39BC 000:006.608 JLINK_SetWarnOutHandler(...)
T39BC 000:006.612 - 0.004ms 
T39BC 000:006.617 JLINK_OpenEx(...)
T39BC 000:010.791   Firmware: J-Link V9 compiled May  7 2021 16:26:12
T39BC 000:012.879   Firmware: J-Link V9 compiled May  7 2021 16:26:12
T39BC 000:013.007   Decompressing FW timestamp took 110 us
T39BC 000:022.847   Hardware: V9.40
T39BC 000:022.857   S/N: 69404747
T39BC 000:022.862   OEM: SEGGER
T39BC 000:022.868   Feature(s): RDI, GDB, FlashDL, FlashBP, JFlash
T39BC 000:024.495   Bootloader: (FW returned invalid version)
T39BC 000:026.458   TELNET listener socket opened on port 19021
T39BC 000:026.554   WEBSRV WEBSRV_Init(): Starting webserver thread(s)
T39BC 000:026.669   WEBSRV Webserver running on local port 19080
T39BC 000:026.787   Looking for J-Link GUI Server exe at: F:\Keil5\ARM\Segger\JLinkGUIServer.exe
T39BC 000:026.871   Looking for J-Link GUI Server exe at: D:\SEGGER\JLink_V864\JLinkGUIServer.exe
T39BC 000:026.895   Forking J-Link GUI Server: D:\SEGGER\JLink_V864\JLinkGUIServer.exe
T39BC 000:051.227   J-Link GUI Server info: "J-Link GUI server V8.64 "
T39BC 000:051.616 - 44.996ms returns "O.K."
T39BC 000:051.634 JLINK_GetEmuCaps()
T39BC 000:051.640 - 0.005ms returns 0xB9FF7BBF
T39BC 000:051.647 JLINK_TIF_GetAvailable(...)
T39BC 000:052.229 - 0.581ms 
T39BC 000:052.242 JLINK_SetErrorOutHandler(...)
T39BC 000:052.245 - 0.004ms 
T39BC 000:052.262 JLINK_ExecCommand("ProjectFile = "F:\STM32Project\F4\IAP\IAP_APP_hal\JLinkSettings.ini"", ...). 
T39BC 000:062.076   Ref file found at: F:\Keil5\ARM\Segger\JLinkDevices.ref
T39BC 000:062.139   REF file references invalid XML file: D:\SEGGER\JLink_V864\JLinkDevices.xml
T39BC 000:062.955 - 10.694ms returns 0x00
T39BC 000:063.000 JLINK_ExecCommand("Device = STM32F407ZGTx", ...). 
T39BC 000:063.929   Device "STM32F407ZG" selected.
T39BC 000:064.291 - 1.285ms returns 0x00
T39BC 000:064.302 JLINK_ExecCommand("DisableConnectionTimeout", ...). 
T39BC 000:064.311   ERROR: Unknown command
T39BC 000:064.316 - 0.009ms returns 0x01
T39BC 000:064.321 JLINK_GetHardwareVersion()
T39BC 000:064.326 - 0.003ms returns 94000
T39BC 000:064.331 JLINK_GetDLLVersion()
T39BC 000:064.334 - 0.003ms returns 86400
T39BC 000:064.339 JLINK_GetOEMString(...)
T39BC 000:064.343 JLINK_GetFirmwareString(...)
T39BC 000:064.347 - 0.003ms 
T39BC 000:064.363 JLINK_GetDLLVersion()
T39BC 000:064.367 - 0.003ms returns 86400
T39BC 000:064.371 JLINK_GetCompileDateTime()
T39BC 000:064.374 - 0.003ms 
T39BC 000:064.382 JLINK_GetFirmwareString(...)
T39BC 000:064.385 - 0.003ms 
T39BC 000:064.391 JLINK_GetHardwareVersion()
T39BC 000:064.395 - 0.003ms returns 94000
T39BC 000:064.401 JLINK_GetSN()
T39BC 000:064.405 - 0.003ms returns 69404747
T39BC 000:064.410 JLINK_GetOEMString(...)
T39BC 000:064.421 JLINK_TIF_Select(JLINKARM_TIF_SWD)
T39BC 000:066.354 - 1.934ms returns 0x00
T39BC 000:066.360 JLINK_HasError()
T39BC 000:066.369 JLINK_SetSpeed(5000)
T39BC 000:066.759 - 0.391ms 
T39BC 000:066.765 JLINK_GetId()
T39BC 000:067.347   InitTarget() start
T39BC 000:067.353    J-Link Script File: Executing InitTarget()
T39BC 000:067.835   SWD selected. Executing JTAG -> SWD switching sequence.
T39BC 000:071.548   DAP initialized successfully.
T39BC 000:083.866   InitTarget() end - Took 16.5ms
T39BC 000:085.108   Found SW-DP with ID 0x2BA01477
T39BC 000:089.282   DPIDR: 0x2BA01477
T39BC 000:089.291   CoreSight SoC-400 or earlier
T39BC 000:089.299   Scanning AP map to find all available APs
T39BC 000:090.676   AP[1]: Stopped AP scan as end of AP map has been reached
T39BC 000:090.685   AP[0]: AHB-AP (IDR: 0x24770011, ADDR: 0x00000000)
T39BC 000:090.692   Iterating through AP map to find AHB-AP to use
T39BC 000:092.375   AP[0]: Core found
T39BC 000:092.393   AP[0]: AHB-AP ROM base: 0xE00FF000
T39BC 000:093.270   CPUID register: 0x410FC241. Implementer code: 0x41 (ARM)
T39BC 000:093.320   Found Cortex-M4 r0p1, Little endian.
T39BC 000:094.458   -- Max. mem block: 0x00010AA0
T39BC 000:095.533   CPU_ReadMem(4 bytes @ 0xE000EDF0)
T39BC 000:096.258   CPU_ReadMem(4 bytes @ 0xE0002000)
T39BC 000:096.956   FPUnit: 6 code (BP) slots and 2 literal slots
T39BC 000:096.962   CPU_ReadMem(4 bytes @ 0xE000EDFC)
T39BC 000:097.596   CPU_WriteMem(4 bytes @ 0xE000EDFC)
T39BC 000:098.271   CPU_ReadMem(4 bytes @ 0xE0001000)
T39BC 000:098.941   CPU_WriteMem(4 bytes @ 0xE0001000)
T39BC 000:099.568   CPU_ReadMem(4 bytes @ 0xE000ED88)
T39BC 000:100.270   CPU_WriteMem(4 bytes @ 0xE000ED88)
T39BC 000:100.940   CPU_ReadMem(4 bytes @ 0xE000ED88)
T39BC 000:101.523   CPU_WriteMem(4 bytes @ 0xE000ED88)
T39BC 000:102.252   CoreSight components:
T39BC 000:102.260   ROMTbl[0] @ E00FF000
T39BC 000:102.265   CPU_ReadMem(64 bytes @ 0xE00FF000)
T39BC 000:103.331   CPU_ReadMem(32 bytes @ 0xE000EFE0)
T39BC 000:104.129   [0][0]: E000E000 CID B105E00D PID 000BB00C SCS-M7
T39BC 000:104.135   CPU_ReadMem(32 bytes @ 0xE0001FE0)
T39BC 000:104.977   [0][1]: E0001000 CID B105E00D PID 003BB002 DWT
T39BC 000:104.982   CPU_ReadMem(32 bytes @ 0xE0002FE0)
T39BC 000:105.904   [0][2]: E0002000 CID B105E00D PID 002BB003 FPB
T39BC 000:105.910   CPU_ReadMem(32 bytes @ 0xE0000FE0)
T39BC 000:106.755   [0][3]: E0000000 CID B105E00D PID 003BB001 ITM
T39BC 000:106.762   CPU_ReadMem(32 bytes @ 0xE0040FE0)
T39BC 000:107.598   [0][4]: E0040000 CID B105900D PID 000BB9A1 TPIU
T39BC 000:107.603   CPU_ReadMem(32 bytes @ 0xE0041FE0)
T39BC 000:108.495   [0][5]: E0041000 CID B105900D PID 000BB925 ETM
T39BC 000:109.106 - 42.338ms returns 0x2BA01477
T39BC 000:109.130 JLINK_GetDLLVersion()
T39BC 000:109.133 - 0.003ms returns 86400
T39BC 000:109.166 JLINK_CORE_GetFound()
T39BC 000:109.169 - 0.003ms returns 0xE0000FF
T39BC 000:109.175 JLINK_GetDebugInfo(0x100 = JLINKARM_ROM_TABLE_ADDR_INDEX)
T39BC 000:109.178   Value=0xE00FF000
T39BC 000:109.183 - 0.009ms returns 0
T39BC 000:109.192 JLINK_GetDebugInfo(0x100 = JLINKARM_ROM_TABLE_ADDR_INDEX)
T39BC 000:109.195   Value=0xE00FF000
T39BC 000:109.200 - 0.008ms returns 0
T39BC 000:109.204 JLINK_GetDebugInfo(0x101 = JLINKARM_DEBUG_INFO_ETM_ADDR_INDEX)
T39BC 000:109.207   Value=0xE0041000
T39BC 000:109.212 - 0.008ms returns 0
T39BC 000:109.217 JLINK_ReadMemEx(0xE0041FD0, 0x20 Bytes, Flags = 0x02000004)
T39BC 000:109.230   CPU_ReadMem(32 bytes @ 0xE0041FD0)
T39BC 000:110.060   Data:  04 00 00 00 00 00 00 00 00 00 00 00 00 00 00 00 ...
T39BC 000:110.066 - 0.849ms returns 32 (0x20)
T39BC 000:110.071 JLINK_GetDebugInfo(0x102 = JLINKARM_DEBUG_INFO_MTB_ADDR_INDEX)
T39BC 000:110.074   Value=0x00000000
T39BC 000:110.079 - 0.008ms returns 0
T39BC 000:110.083 JLINK_GetDebugInfo(0x103 = JLINKARM_DEBUG_INFO_TPIU_ADDR_INDEX)
T39BC 000:110.087   Value=0xE0040000
T39BC 000:110.092 - 0.008ms returns 0
T39BC 000:110.096 JLINK_GetDebugInfo(0x104 = JLINKARM_DEBUG_INFO_ITM_ADDR_INDEX)
T39BC 000:110.099   Value=0xE0000000
T39BC 000:110.104 - 0.008ms returns 0
T39BC 000:110.108 JLINK_GetDebugInfo(0x105 = JLINKARM_DEBUG_INFO_DWT_ADDR_INDEX)
T39BC 000:110.111   Value=0xE0001000
T39BC 000:110.116 - 0.008ms returns 0
T39BC 000:110.121 JLINK_GetDebugInfo(0x106 = JLINKARM_DEBUG_INFO_FPB_ADDR_INDEX)
T39BC 000:110.124   Value=0xE0002000
T39BC 000:110.129 - 0.008ms returns 0
T39BC 000:110.133 JLINK_GetDebugInfo(0x107 = JLINKARM_DEBUG_INFO_NVIC_ADDR_INDEX)
T39BC 000:110.136   Value=0xE000E000
T39BC 000:110.141 - 0.008ms returns 0
T39BC 000:110.145 JLINK_GetDebugInfo(0x10C = JLINKARM_DEBUG_INFO_DBG_ADDR_INDEX)
T39BC 000:110.149   Value=0xE000EDF0
T39BC 000:110.153 - 0.008ms returns 0
T39BC 000:110.158 JLINK_ReadMemU32(0xE000EF40, 0x1 Items)
T39BC 000:110.162   CPU_ReadMem(4 bytes @ 0xE000EF40)
T39BC 000:110.796   Data:  21 00 11 10
T39BC 000:110.804 - 0.646ms returns 1 (0x1)
T39BC 000:110.809 JLINK_ReadMemU32(0xE000EF44, 0x1 Items)
T39BC 000:110.813   CPU_ReadMem(4 bytes @ 0xE000EF44)
T39BC 000:111.391   Data:  11 00 00 11
T39BC 000:111.409 - 0.600ms returns 1 (0x1)
T39BC 000:111.418 JLINK_ReadMemU32(0xE000ED00, 0x1 Items)
T39BC 000:111.422   CPU_ReadMem(4 bytes @ 0xE000ED00)
T39BC 000:112.083   Data:  41 C2 0F 41
T39BC 000:112.088   Debug reg: CPUID
T39BC 000:112.093 - 0.675ms returns 1 (0x1)
T39BC 000:112.099 JLINK_GetDebugInfo(0x10F = JLINKARM_DEBUG_INFO_HAS_CORTEX_M_SECURITY_EXT_INDEX)
T39BC 000:112.102   Value=0x00000000
T39BC 000:112.107 - 0.008ms returns 0
T39BC 000:112.112 JLINK_HasError()
T39BC 000:112.116 JLINK_SetResetType(JLINKARM_CM3_RESET_TYPE_NORMAL)
T39BC 000:112.120 - 0.003ms returns JLINKARM_CM3_RESET_TYPE_NORMAL
T39BC 000:112.124 JLINK_Reset()
T39BC 000:112.131   JLINK_GetResetTypeDesc
T39BC 000:112.134   - 0.003ms 
T39BC 000:112.144   Reset type: NORMAL (https://wiki.segger.com/J-Link_Reset_Strategies)
T39BC 000:112.149   CPU is running
T39BC 000:112.154   CPU_WriteMem(4 bytes @ 0xE000EDF0)
T39BC 000:112.787   CPU is running
T39BC 000:112.795   CPU_WriteMem(4 bytes @ 0xE000EDFC)
T39BC 000:113.476   Reset: Halt core after reset via DEMCR.VC_CORERESET.
T39BC 000:114.556   Reset: Reset device via AIRCR.SYSRESETREQ.
T39BC 000:114.561   CPU is running
T39BC 000:114.566   CPU_WriteMem(4 bytes @ 0xE000ED0C)
T39BC 000:169.497   CPU_ReadMem(4 bytes @ 0xE000EDF0)
T39BC 000:170.280   CPU_ReadMem(4 bytes @ 0xE000EDF0)
T39BC 000:174.347   CPU_WriteMem(4 bytes @ 0xE000EDFC)
T39BC 000:181.020   CPU_ReadMem(4 bytes @ 0xE000EDF0)
T39BC 000:185.042   CPU_WriteMem(4 bytes @ 0xE0002000)
T39BC 000:185.733   CPU_ReadMem(4 bytes @ 0xE000EDFC)
T39BC 000:186.333   CPU_ReadMem(4 bytes @ 0xE0001000)
T39BC 000:186.999 - 74.873ms 
T39BC 000:187.011 JLINK_HasError()
T39BC 000:187.017 JLINK_ReadReg(R15 (PC))
T39BC 000:187.022 - 0.005ms returns 0x080001C0
T39BC 000:187.043 JLINK_ReadReg(XPSR)
T39BC 000:187.046 - 0.013ms returns 0x01000000
T39BC 000:187.052 JLINK_Halt()
T39BC 000:187.055 - 0.003ms returns 0x00
T39BC 000:187.060 JLINK_ReadMemU32(0xE000EDF0, 0x1 Items)
T39BC 000:187.067   CPU_ReadMem(4 bytes @ 0xE000EDF0)
T39BC 000:187.759   Data:  03 00 03 00
T39BC 000:187.773   Debug reg: DHCSR
T39BC 000:187.779 - 0.718ms returns 1 (0x1)
T39BC 000:187.791 JLINK_WriteU32(0xE000EDF0, 0xA05F0003)
T39BC 000:187.795   Debug reg: DHCSR
T39BC 000:188.012   CPU_WriteMem(4 bytes @ 0xE000EDF0)
T39BC 000:188.710 - 0.921ms returns 0 (0x00000000)
T39BC 000:188.721 JLINK_WriteU32(0xE000EDFC, 0x01000000)
T39BC 000:188.725   Debug reg: DEMCR
T39BC 000:188.732   CPU_WriteMem(4 bytes @ 0xE000EDFC)
T39BC 000:189.469 - 0.746ms returns 0 (0x00000000)
T39BC 000:189.519 JLINK_GetHWStatus(...)
T39BC 000:190.040 - 0.521ms returns 0
T39BC 000:190.079 JLINK_GetNumBPUnits(Type = 0xFFFFFF00)
T39BC 000:190.083 - 0.004ms returns 0x06
T39BC 000:190.088 JLINK_GetNumBPUnits(Type = 0xF0)
T39BC 000:190.091 - 0.003ms returns 0x2000
T39BC 000:190.095 JLINK_GetNumWPUnits()
T39BC 000:190.099 - 0.003ms returns 4
T39BC 000:190.110 JLINK_GetSpeed()
T39BC 000:190.113 - 0.003ms returns 4000
T39BC 000:190.123 JLINK_ReadMemU32(0xE000E004, 0x1 Items)
T39BC 000:190.136   CPU_ReadMem(4 bytes @ 0xE000E004)
T39BC 000:190.804   Data:  02 00 00 00
T39BC 000:190.818 - 0.695ms returns 1 (0x1)
T39BC 000:190.823 JLINK_ReadMemU32(0xE000E004, 0x1 Items)
T39BC 000:190.827   CPU_ReadMem(4 bytes @ 0xE000E004)
T39BC 000:191.495   Data:  02 00 00 00
T39BC 000:191.503 - 0.680ms returns 1 (0x1)
T39BC 000:191.508 JLINK_WriteMemEx(0xE0001000, 0x0000001C Bytes, Flags = 0x02000004)
T39BC 000:191.512   Data:  01 00 00 00 00 00 00 00 00 00 00 00 00 00 00 00 ...
T39BC 000:191.519   CPU_WriteMem(28 bytes @ 0xE0001000)
T39BC 000:192.368 - 0.859ms returns 0x1C
T39BC 000:192.395 JLINK_HasError()
T39BC 000:192.400 JLINK_ReadReg(R15 (PC))
T39BC 000:192.404 - 0.004ms returns 0x080001C0
T39BC 000:192.409 JLINK_ReadReg(XPSR)
T39BC 000:192.412 - 0.003ms returns 0x01000000
T39BC 000:291.503 JLINK_HasError()
T39BC 000:291.522 JLINK_SetResetType(JLINKARM_CM3_RESET_TYPE_NORMAL)
T39BC 000:291.528 - 0.005ms returns JLINKARM_CM3_RESET_TYPE_NORMAL
T39BC 000:291.532 JLINK_Reset()
T39BC 000:291.546   JLINK_GetResetTypeDesc
T39BC 000:291.552   - 0.005ms 
T39BC 000:291.567   Reset type: NORMAL (https://wiki.segger.com/J-Link_Reset_Strategies)
T39BC 000:291.574   CPU_WriteMem(4 bytes @ 0xE000EDF0)
T39BC 000:292.322   CPU_WriteMem(4 bytes @ 0xE000EDFC)
T39BC 000:292.946   Reset: Halt core after reset via DEMCR.VC_CORERESET.
T39BC 000:294.000   Reset: Reset device via AIRCR.SYSRESETREQ.
T39BC 000:294.006   CPU_WriteMem(4 bytes @ 0xE000ED0C)
T39BC 000:349.059   CPU_ReadMem(4 bytes @ 0xE000EDF0)
T39BC 000:349.769   CPU_ReadMem(4 bytes @ 0xE000EDF0)
T39BC 000:350.396   CPU_WriteMem(4 bytes @ 0xE000EDFC)
T39BC 000:356.823   CPU_ReadMem(4 bytes @ 0xE000EDF0)
T39BC 000:360.882   CPU_WriteMem(4 bytes @ 0xE0002000)
T39BC 000:361.591   CPU_ReadMem(4 bytes @ 0xE000EDFC)
T39BC 000:362.264   CPU_ReadMem(4 bytes @ 0xE0001000)
T39BC 000:362.955 - 71.422ms 
T39BC 000:363.026 JLINK_HasError()
T39BC 000:363.031 JLINK_ReadReg(R15 (PC))
T39BC 000:363.037 - 0.005ms returns 0x080001C0
T39BC 000:363.041 JLINK_ReadReg(XPSR)
T39BC 000:363.045 - 0.003ms returns 0x01000000
T39BC 000:363.108 JLINK_ReadMemEx(0x080001C0, 0x3C Bytes, Flags = 0x02000000)
T39BC 000:363.117   CPU_ReadMem(64 bytes @ 0x080001C0)
T39BC 000:364.161    -- Updating C cache (64 bytes @ 0x080001C0)
T39BC 000:364.167    -- Read from C cache (60 bytes @ 0x080001C0)
T39BC 000:364.173   Data:  06 48 80 47 06 48 00 47 FE E7 FE E7 FE E7 FE E7 ...
T39BC 000:364.178 - 1.070ms returns 60 (0x3C)
T39BC 000:394.770 JLINK_ReadMemEx(0x40029000, 0x24 Bytes, Flags = 0x02000004)
T39BC 000:394.801   CPU_ReadMem(36 bytes @ 0x40029000)
T39BC 000:395.732   Data:  00 00 00 00 00 00 00 00 00 00 00 00 00 00 00 00 ...
T39BC 000:395.748 - 0.977ms returns 36 (0x24)
T39BC 000:395.757 JLINK_ReadMemEx(0x40029000, 0x4 Bytes, Flags = 0x02000004)
T39BC 000:395.765   CPU_ReadMem(4 bytes @ 0x40029000)
T39BC 000:396.509   Data:  00 00 00 00
T39BC 000:396.522 - 0.765ms returns 4 (0x4)
T39BC 000:396.531 JLINK_ReadMemEx(0x40029004, 0x4 Bytes, Flags = 0x02000004)
T39BC 000:396.539   CPU_ReadMem(4 bytes @ 0x40029004)
T39BC 000:397.171   Data:  00 00 00 00
T39BC 000:397.185 - 0.653ms returns 4 (0x4)
T39BC 000:397.190 JLINK_ReadMemEx(0x40029008, 0x4 Bytes, Flags = 0x02000004)
T39BC 000:397.195   CPU_ReadMem(4 bytes @ 0x40029008)
T39BC 000:397.892   Data:  00 00 00 00
T39BC 000:397.912 - 0.721ms returns 4 (0x4)
T39BC 000:397.917 JLINK_ReadMemEx(0x4002900C, 0x4 Bytes, Flags = 0x02000004)
T39BC 000:397.921   CPU_ReadMem(4 bytes @ 0x4002900C)
T39BC 000:398.663   Data:  00 00 00 00
T39BC 000:398.670 - 0.753ms returns 4 (0x4)
T39BC 000:398.675 JLINK_ReadMemEx(0x40029010, 0x4 Bytes, Flags = 0x02000004)
T39BC 000:398.679   CPU_ReadMem(4 bytes @ 0x40029010)
T39BC 000:399.331   Data:  00 00 00 00
T39BC 000:399.338 - 0.663ms returns 4 (0x4)
T39BC 000:399.344 JLINK_ReadMemEx(0x40029014, 0x4 Bytes, Flags = 0x02000004)
T39BC 000:399.349   CPU_ReadMem(4 bytes @ 0x40029014)
T39BC 000:399.899   Data:  00 00 00 00
T39BC 000:399.908 - 0.564ms returns 4 (0x4)
T39BC 000:399.915 JLINK_ReadMemEx(0x40029018, 0x4 Bytes, Flags = 0x02000004)
T39BC 000:399.922   CPU_ReadMem(4 bytes @ 0x40029018)
T39BC 000:400.677   Data:  00 00 00 00
T39BC 000:400.695 - 0.779ms returns 4 (0x4)
T39BC 000:400.700 JLINK_ReadMemEx(0x4002901C, 0x4 Bytes, Flags = 0x02000004)
T39BC 000:400.706   CPU_ReadMem(4 bytes @ 0x4002901C)
T39BC 000:401.287   Data:  00 00 00 00
T39BC 000:401.294 - 0.594ms returns 4 (0x4)
T39BC 000:401.299 JLINK_ReadMemEx(0x40029020, 0x4 Bytes, Flags = 0x02000004)
T39BC 000:401.304   CPU_ReadMem(4 bytes @ 0x40029020)
T39BC 000:402.037   Data:  00 00 00 00
T39BC 000:402.046 - 0.746ms returns 4 (0x4)
T39BC 000:402.051 JLINK_ReadMemEx(0x40029024, 0x4 Bytes, Flags = 0x02000004)
T39BC 000:402.056   CPU_ReadMem(4 bytes @ 0x40029024)
T39BC 000:402.768   Data:  00 00 00 00
T39BC 000:402.776 - 0.724ms returns 4 (0x4)
T39BC 000:402.781 JLINK_ReadMemEx(0x40029024, 0x4 Bytes, Flags = 0x02000004)
T39BC 000:402.785   CPU_ReadMem(4 bytes @ 0x40029024)
T39BC 000:403.469   Data:  00 00 00 00
T39BC 000:403.517 - 0.736ms returns 4 (0x4)
T39BC 000:403.523 JLINK_ReadMemEx(0x40029048, 0xC Bytes, Flags = 0x02000004)
T39BC 000:403.528   CPU_ReadMem(12 bytes @ 0x40029048)
T39BC 000:404.252   Data:  00 00 00 00 00 00 00 00 00 00 00 00
T39BC 000:404.261 - 0.738ms returns 12 (0xC)
T39BC 000:404.268 JLINK_ReadMemEx(0x40029048, 0x4 Bytes, Flags = 0x02000004)
T39BC 000:404.274   CPU_ReadMem(4 bytes @ 0x40029048)
T39BC 000:405.021   Data:  00 00 00 00
T39BC 000:405.026 - 0.758ms returns 4 (0x4)
T39BC 000:405.031 JLINK_ReadMemEx(0x4002904C, 0x4 Bytes, Flags = 0x02000004)
T39BC 000:405.036   CPU_ReadMem(4 bytes @ 0x4002904C)
T39BC 000:405.643   Data:  00 00 00 00
T39BC 000:405.650 - 0.619ms returns 4 (0x4)
T39BC 000:405.655 JLINK_ReadMemEx(0x40029050, 0x4 Bytes, Flags = 0x02000004)
T39BC 000:405.660   CPU_ReadMem(4 bytes @ 0x40029050)
T39BC 000:406.288   Data:  00 00 00 00
T39BC 000:406.307 - 0.651ms returns 4 (0x4)
T39BC 000:406.312 JLINK_ReadMemEx(0x40029054, 0x4 Bytes, Flags = 0x02000004)
T39BC 000:406.316   CPU_ReadMem(4 bytes @ 0x40029054)
T39BC 000:406.953   Data:  00 00 00 00
T39BC 000:406.958 - 0.646ms returns 4 (0x4)
T39BC 000:406.963 JLINK_ReadMemEx(0x40029054, 0x4 Bytes, Flags = 0x02000004)
T39BC 000:406.967   CPU_ReadMem(4 bytes @ 0x40029054)
T39BC 000:407.662   Data:  00 00 00 00
T39BC 000:407.682 - 0.719ms returns 4 (0x4)
T39BC 000:430.196 JLINK_ReadMemEx(0x40028000, 0x1C Bytes, Flags = 0x02000004)
T39BC 000:430.229   CPU_ReadMem(28 bytes @ 0x40028000)
T39BC 000:431.025   Data:  00 00 00 00 00 00 00 00 00 00 00 00 00 00 00 00 ...
T39BC 000:431.042 - 0.846ms returns 28 (0x1C)
T39BC 000:431.051 JLINK_ReadMemEx(0x40028000, 0x4 Bytes, Flags = 0x02000004)
T39BC 000:431.060   CPU_ReadMem(4 bytes @ 0x40028000)
T39BC 000:431.774   Data:  00 00 00 00
T39BC 000:431.785 - 0.734ms returns 4 (0x4)
T39BC 000:431.795 JLINK_ReadMemEx(0x40028004, 0x4 Bytes, Flags = 0x02000004)
T39BC 000:431.801   CPU_ReadMem(4 bytes @ 0x40028004)
T39BC 000:432.509   Data:  00 00 00 00
T39BC 000:432.517 - 0.722ms returns 4 (0x4)
T39BC 000:432.522 JLINK_ReadMemEx(0x40028008, 0x4 Bytes, Flags = 0x02000004)
T39BC 000:432.527   CPU_ReadMem(4 bytes @ 0x40028008)
T39BC 000:433.142   Data:  00 00 00 00
T39BC 000:433.151 - 0.628ms returns 4 (0x4)
T39BC 000:433.156 JLINK_ReadMemEx(0x4002800C, 0x4 Bytes, Flags = 0x02000004)
T39BC 000:433.160   CPU_ReadMem(4 bytes @ 0x4002800C)
T39BC 000:433.765   Data:  00 00 00 00
T39BC 000:433.773 - 0.617ms returns 4 (0x4)
T39BC 000:433.777 JLINK_ReadMemEx(0x40028010, 0x4 Bytes, Flags = 0x02000004)
T39BC 000:433.782   CPU_ReadMem(4 bytes @ 0x40028010)
T39BC 000:434.392   Data:  00 00 00 00
T39BC 000:434.400 - 0.622ms returns 4 (0x4)
T39BC 000:434.405 JLINK_ReadMemEx(0x40028014, 0x4 Bytes, Flags = 0x02000004)
T39BC 000:434.409   CPU_ReadMem(4 bytes @ 0x40028014)
T39BC 000:435.086   Data:  00 00 00 00
T39BC 000:435.103 - 0.697ms returns 4 (0x4)
T39BC 000:435.108 JLINK_ReadMemEx(0x40028018, 0x4 Bytes, Flags = 0x02000004)
T39BC 000:435.112   CPU_ReadMem(4 bytes @ 0x40028018)
T39BC 000:435.793   Data:  00 00 00 00
T39BC 000:435.799 - 0.691ms returns 4 (0x4)
T39BC 000:435.804 JLINK_ReadMemEx(0x4002801C, 0x4 Bytes, Flags = 0x02000004)
T39BC 000:435.808   CPU_ReadMem(4 bytes @ 0x4002801C)
T39BC 000:436.537   Data:  00 00 00 00
T39BC 000:436.557 - 0.752ms returns 4 (0x4)
T39BC 000:436.562 JLINK_ReadMemEx(0x4002801C, 0x4 Bytes, Flags = 0x02000004)
T39BC 000:436.566   CPU_ReadMem(4 bytes @ 0x4002801C)
T39BC 000:437.139   Data:  00 00 00 00
T39BC 000:437.149 - 0.587ms returns 4 (0x4)
T39BC 000:437.154 JLINK_ReadMemEx(0x4002802C, 0x4 Bytes, Flags = 0x02000004)
T39BC 000:437.158   CPU_ReadMem(4 bytes @ 0x4002802C)
T39BC 000:437.745   Data:  00 00 00 00
T39BC 000:437.753 - 0.599ms returns 4 (0x4)
T39BC 000:437.758 JLINK_ReadMemEx(0x4002802C, 0x4 Bytes, Flags = 0x02000004)
T39BC 000:437.762   CPU_ReadMem(4 bytes @ 0x4002802C)
T39BC 000:438.514   Data:  00 00 00 00
T39BC 000:438.522 - 0.763ms returns 4 (0x4)
T39BC 000:438.527 JLINK_ReadMemEx(0x40028034, 0x28 Bytes, Flags = 0x02000004)
T39BC 000:438.534   CPU_ReadMem(40 bytes @ 0x40028034)
T39BC 000:439.392   Data:  00 00 00 00 00 00 00 00 00 00 00 00 00 00 00 00 ...
T39BC 000:439.408 - 0.881ms returns 40 (0x28)
T39BC 000:439.416 JLINK_ReadMemEx(0x40028034, 0x4 Bytes, Flags = 0x02000004)
T39BC 000:439.420   CPU_ReadMem(4 bytes @ 0x40028034)
T39BC 000:440.142   Data:  00 00 00 00
T39BC 000:440.148 - 0.732ms returns 4 (0x4)
T39BC 000:440.155 JLINK_ReadMemEx(0x40028038, 0x4 Bytes, Flags = 0x02000004)
T39BC 000:440.159   CPU_ReadMem(4 bytes @ 0x40028038)
T39BC 000:440.844   Data:  00 00 00 00
T39BC 000:440.851 - 0.696ms returns 4 (0x4)
T39BC 000:440.856 JLINK_ReadMemEx(0x4002803C, 0x4 Bytes, Flags = 0x02000004)
T39BC 000:440.861   CPU_ReadMem(4 bytes @ 0x4002803C)
T39BC 000:441.477   Data:  00 00 00 00
T39BC 000:441.487 - 0.631ms returns 4 (0x4)
T39BC 000:441.494 JLINK_ReadMemEx(0x40028040, 0x4 Bytes, Flags = 0x02000004)
T39BC 000:441.498   CPU_ReadMem(4 bytes @ 0x40028040)
T39BC 000:442.123   Data:  00 00 00 00
T39BC 000:442.134 - 0.640ms returns 4 (0x4)
T39BC 000:442.140 JLINK_ReadMemEx(0x40028044, 0x4 Bytes, Flags = 0x02000004)
T39BC 000:442.145   CPU_ReadMem(4 bytes @ 0x40028044)
T39BC 000:442.792   Data:  00 00 00 00
T39BC 000:442.800 - 0.659ms returns 4 (0x4)
T39BC 000:442.806 JLINK_ReadMemEx(0x40028048, 0x4 Bytes, Flags = 0x02000004)
T39BC 000:442.810   CPU_ReadMem(4 bytes @ 0x40028048)
T39BC 000:443.392   Data:  00 00 00 00
T39BC 000:443.407 - 0.600ms returns 4 (0x4)
T39BC 000:443.413 JLINK_ReadMemEx(0x4002804C, 0x4 Bytes, Flags = 0x02000004)
T39BC 000:443.417   CPU_ReadMem(4 bytes @ 0x4002804C)
T39BC 000:444.023   Data:  00 00 00 00
T39BC 000:444.029 - 0.616ms returns 4 (0x4)
T39BC 000:444.035 JLINK_ReadMemEx(0x40028050, 0x4 Bytes, Flags = 0x02000004)
T39BC 000:444.039   CPU_ReadMem(4 bytes @ 0x40028050)
T39BC 000:444.745   Data:  00 00 00 00
T39BC 000:444.752 - 0.717ms returns 4 (0x4)
T39BC 000:444.758 JLINK_ReadMemEx(0x40028054, 0x4 Bytes, Flags = 0x02000004)
T39BC 000:444.762   CPU_ReadMem(4 bytes @ 0x40028054)
T39BC 000:445.506   Data:  00 00 00 00
T39BC 000:445.515 - 0.756ms returns 4 (0x4)
T39BC 000:445.523 JLINK_ReadMemEx(0x40028058, 0x4 Bytes, Flags = 0x02000004)
T39BC 000:445.530   CPU_ReadMem(4 bytes @ 0x40028058)
T39BC 000:446.263   Data:  00 00 00 00
T39BC 000:446.270 - 0.746ms returns 4 (0x4)
T39BC 000:446.277 JLINK_ReadMemEx(0x4002805C, 0x4 Bytes, Flags = 0x02000004)
T39BC 000:446.282   CPU_ReadMem(4 bytes @ 0x4002805C)
T39BC 000:446.902   Data:  00 00 00 00
T39BC 000:446.912 - 0.635ms returns 4 (0x4)
T39BC 000:446.921 JLINK_ReadMemEx(0x4002805C, 0x4 Bytes, Flags = 0x02000004)
T39BC 000:446.927   CPU_ReadMem(4 bytes @ 0x4002805C)
T39BC 000:447.618   Data:  00 00 00 00
T39BC 000:447.627 - 0.706ms returns 4 (0x4)
T39BC 001:199.033 JLINK_ReadMemEx(0x080205DE, 0x2 Bytes, Flags = 0x02000000)
T39BC 001:199.058   CPU_ReadMem(64 bytes @ 0x080205C0)
T39BC 001:200.160    -- Updating C cache (64 bytes @ 0x080205C0)
T39BC 001:200.166    -- Read from C cache (2 bytes @ 0x080205DE)
T39BC 001:200.172   Data:  4F F0
T39BC 001:200.178 - 1.146ms returns 2 (0x2)
T39BC 001:200.185 JLINK_ReadMemEx(0x080205E0, 0x3C Bytes, Flags = 0x02000000)
T39BC 001:200.189   CPU_ReadMem(64 bytes @ 0x08020600)
T39BC 001:201.287    -- Updating C cache (64 bytes @ 0x08020600)
T39BC 001:201.299    -- Read from C cache (60 bytes @ 0x080205E0)
T39BC 001:201.304   Data:  AA 32 00 23 11 49 09 1D 02 20 01 F0 23 F9 01 F0 ...
T39BC 001:201.309 - 1.125ms returns 60 (0x3C)
T39BC 001:300.652 JLINK_HasError()
T39BC 001:300.678 JLINK_ReadReg(R0)
T39BC 001:301.475 - 0.797ms returns 0x00000000
T39BC 001:301.481 JLINK_ReadReg(R1)
T39BC 001:301.485 - 0.004ms returns 0x00000000
T39BC 001:301.490 JLINK_ReadReg(R2)
T39BC 001:301.493 - 0.003ms returns 0x00000000
T39BC 001:301.497 JLINK_ReadReg(R3)
T39BC 001:301.501 - 0.003ms returns 0x00000000
T39BC 001:301.505 JLINK_ReadReg(R4)
T39BC 001:301.509 - 0.003ms returns 0x00000000
T39BC 001:301.513 JLINK_ReadReg(R5)
T39BC 001:301.516 - 0.003ms returns 0x00000000
T39BC 001:301.525 JLINK_ReadReg(R6)
T39BC 001:301.529 - 0.003ms returns 0x00000000
T39BC 001:301.533 JLINK_ReadReg(R7)
T39BC 001:301.536 - 0.003ms returns 0x00000000
T39BC 001:301.543 JLINK_ReadReg(R8)
T39BC 001:301.547 - 0.006ms returns 0x00000000
T39BC 001:301.550 JLINK_ReadReg(R9)
T39BC 001:301.554 - 0.003ms returns 0x00000000
T39BC 001:301.558 JLINK_ReadReg(R10)
T39BC 001:301.562 - 0.003ms returns 0x00000000
T39BC 001:301.566 JLINK_ReadReg(R11)
T39BC 001:301.569 - 0.003ms returns 0x00000000
T39BC 001:301.573 JLINK_ReadReg(R12)
T39BC 001:301.577 - 0.003ms returns 0x00000000
T39BC 001:301.586 JLINK_ReadReg(R13 (SP))
T39BC 001:301.590 - 0.009ms returns 0x20000AC0
T39BC 001:301.595 JLINK_ReadReg(R14)
T39BC 001:301.598 - 0.003ms returns 0xFFFFFFFF
T39BC 001:301.602 JLINK_ReadReg(R15 (PC))
T39BC 001:301.606 - 0.004ms returns 0x080001C0
T39BC 001:301.610 JLINK_ReadReg(XPSR)
T39BC 001:301.614 - 0.003ms returns 0x01000000
T39BC 001:301.618 JLINK_ReadReg(MSP)
T39BC 001:301.622 - 0.003ms returns 0x20000AC0
T39BC 001:301.626 JLINK_ReadReg(PSP)
T39BC 001:301.629 - 0.003ms returns 0x00000000
T39BC 001:301.633 JLINK_ReadReg(CFBP)
T39BC 001:301.637 - 0.004ms returns 0x00000000
T39BC 001:301.642 JLINK_ReadReg(FPSCR)
T39BC 001:306.638 - 4.994ms returns 0x00000000
T39BC 001:306.658 JLINK_ReadReg(FPS0)
T39BC 001:306.665 - 0.006ms returns 0x00000000
T39BC 001:306.669 JLINK_ReadReg(FPS1)
T39BC 001:306.673 - 0.003ms returns 0x00000000
T39BC 001:306.677 JLINK_ReadReg(FPS2)
T39BC 001:306.680 - 0.003ms returns 0x00000000
T39BC 001:306.684 JLINK_ReadReg(FPS3)
T39BC 001:306.688 - 0.003ms returns 0x00000000
T39BC 001:306.692 JLINK_ReadReg(FPS4)
T39BC 001:306.696 - 0.003ms returns 0x00000000
T39BC 001:306.700 JLINK_ReadReg(FPS5)
T39BC 001:306.703 - 0.003ms returns 0x00000000
T39BC 001:306.707 JLINK_ReadReg(FPS6)
T39BC 001:306.711 - 0.003ms returns 0x00000000
T39BC 001:306.715 JLINK_ReadReg(FPS7)
T39BC 001:306.719 - 0.003ms returns 0x00000000
T39BC 001:306.723 JLINK_ReadReg(FPS8)
T39BC 001:306.726 - 0.003ms returns 0x00000000
T39BC 001:306.730 JLINK_ReadReg(FPS9)
T39BC 001:306.734 - 0.003ms returns 0x00000000
T39BC 001:306.738 JLINK_ReadReg(FPS10)
T39BC 001:306.742 - 0.003ms returns 0x00000000
T39BC 001:306.746 JLINK_ReadReg(FPS11)
T39BC 001:306.749 - 0.003ms returns 0x00000000
T39BC 001:306.753 JLINK_ReadReg(FPS12)
T39BC 001:306.757 - 0.003ms returns 0x00000000
T39BC 001:306.761 JLINK_ReadReg(FPS13)
T39BC 001:306.765 - 0.003ms returns 0x00000000
T39BC 001:306.769 JLINK_ReadReg(FPS14)
T39BC 001:306.772 - 0.003ms returns 0x00000000
T39BC 001:306.776 JLINK_ReadReg(FPS15)
T39BC 001:306.780 - 0.003ms returns 0x00000000
T39BC 001:306.784 JLINK_ReadReg(FPS16)
T39BC 001:306.788 - 0.003ms returns 0x00000000
T39BC 001:306.792 JLINK_ReadReg(FPS17)
T39BC 001:306.795 - 0.003ms returns 0x00000000
T39BC 001:306.799 JLINK_ReadReg(FPS18)
T39BC 001:306.803 - 0.003ms returns 0x00000000
T39BC 001:306.807 JLINK_ReadReg(FPS19)
T39BC 001:306.811 - 0.003ms returns 0x00000000
T39BC 001:306.815 JLINK_ReadReg(FPS20)
T39BC 001:306.818 - 0.003ms returns 0x00000000
T39BC 001:306.822 JLINK_ReadReg(FPS21)
T39BC 001:306.826 - 0.003ms returns 0x00000000
T39BC 001:306.830 JLINK_ReadReg(FPS22)
T39BC 001:306.834 - 0.003ms returns 0x00000000
T39BC 001:306.838 JLINK_ReadReg(FPS23)
T39BC 001:306.841 - 0.003ms returns 0x00000000
T39BC 001:306.845 JLINK_ReadReg(FPS24)
T39BC 001:306.849 - 0.003ms returns 0x00000000
T39BC 001:306.853 JLINK_ReadReg(FPS25)
T39BC 001:306.857 - 0.003ms returns 0x00000000
T39BC 001:306.861 JLINK_ReadReg(FPS26)
T39BC 001:306.864 - 0.003ms returns 0x00000000
T39BC 001:306.868 JLINK_ReadReg(FPS27)
T39BC 001:306.872 - 0.003ms returns 0x00000000
T39BC 001:306.876 JLINK_ReadReg(FPS28)
T39BC 001:306.880 - 0.003ms returns 0x00000000
T39BC 001:306.884 JLINK_ReadReg(FPS29)
T39BC 001:306.888 - 0.003ms returns 0x00000000
T39BC 001:306.892 JLINK_ReadReg(FPS30)
T39BC 001:306.895 - 0.003ms returns 0x00000000
T39BC 001:306.899 JLINK_ReadReg(FPS31)
T39BC 001:306.903 - 0.003ms returns 0x00000000
T3830 001:349.097 JLINK_ReadMemEx(0x080001C0, 0x2 Bytes, Flags = 0x02000000)
T3830 001:349.124    -- Read from C cache (2 bytes @ 0x080001C0)
T3830 001:349.130   Data:  06 48
T3830 001:349.136 - 0.040ms returns 2 (0x2)
T3830 001:349.142 JLINK_HasError()
T3830 001:349.149 JLINK_SetBPEx(Addr = 0x08025440, Type = 0xFFFFFFF2)
T3830 001:349.161 - 0.012ms returns 0x00000001
T3830 001:349.165 JLINK_HasError()
T3830 001:349.169 JLINK_SetBPEx(Addr = 0x080205F8, Type = 0xFFFFFFF2)
T3830 001:349.173 - 0.003ms returns 0x00000002
T3830 001:349.177 JLINK_HasError()
T3830 001:349.181 JLINK_HasError()
T3830 001:349.188 JLINK_Go()
T3830 001:349.199   CPU_WriteMem(4 bytes @ 0xE0002000)
T3830 001:350.018   CPU_WriteMem(4 bytes @ 0xE0002000)
T3830 001:350.654   CPU_ReadMem(4 bytes @ 0xE0001000)
T3830 001:351.233   CPU_WriteMem(4 bytes @ 0xE0002008)
T3830 001:351.245   CPU_WriteMem(4 bytes @ 0xE000200C)
T3830 001:351.250   CPU_WriteMem(4 bytes @ 0xE0002010)
T3830 001:351.256   CPU_WriteMem(4 bytes @ 0xE0002014)
T3830 001:351.261   CPU_WriteMem(4 bytes @ 0xE0002018)
T3830 001:351.266   CPU_WriteMem(4 bytes @ 0xE000201C)
T3830 001:353.015   CPU_WriteMem(4 bytes @ 0xE0001004)
T3830 001:358.435   Memory map 'after startup completion point' is active
T3830 001:358.451 - 9.262ms 
T3830 001:458.779 JLINK_HasError()
T3830 001:458.796 JLINK_IsHalted()
T3830 001:459.631 - 0.832ms returns FALSE
T3830 001:560.310 JLINK_HasError()
T3830 001:560.332 JLINK_IsHalted()
T3830 001:561.302 - 0.969ms returns FALSE
T3830 001:662.294 JLINK_HasError()
T3830 001:662.314 JLINK_IsHalted()
T3830 001:663.158 - 0.841ms returns FALSE
T3830 001:763.370 JLINK_HasError()
T3830 001:763.386 JLINK_IsHalted()
T3830 001:764.201 - 0.814ms returns FALSE
T3830 001:865.271 JLINK_HasError()
T3830 001:865.297 JLINK_HasError()
T3830 001:865.302 JLINK_ReadMemU32(0xE0001004, 0x1 Items)
T3830 001:865.328   CPU_ReadMem(4 bytes @ 0xE0001004)
T3830 001:866.050   Data:  35 FF 1D 05
T3830 001:866.062   Debug reg: DWT_CYCCNT
T3830 001:866.068 - 0.765ms returns 1 (0x1)
T39BC 001:868.327 JLINK_ReadMemEx(0x40028000, 0x1C Bytes, Flags = 0x02000004)
T39BC 001:868.343   CPU_ReadMem(28 bytes @ 0x40028000)
T39BC 001:869.278   Data:  00 00 00 00 00 00 00 00 00 00 00 00 00 00 00 00 ...
T39BC 001:869.284 - 0.956ms returns 28 (0x1C)
T39BC 001:869.290 JLINK_ReadMemEx(0x40028000, 0x4 Bytes, Flags = 0x02000004)
T39BC 001:869.294   CPU_ReadMem(4 bytes @ 0x40028000)
T39BC 001:870.066   Data:  00 00 00 00
T39BC 001:870.074 - 0.784ms returns 4 (0x4)
T39BC 001:870.078 JLINK_ReadMemEx(0x40028004, 0x4 Bytes, Flags = 0x02000004)
T39BC 001:870.083   CPU_ReadMem(4 bytes @ 0x40028004)
T39BC 001:870.691   Data:  00 00 00 00
T39BC 001:870.717 - 0.638ms returns 4 (0x4)
T39BC 001:870.723 JLINK_ReadMemEx(0x40028008, 0x4 Bytes, Flags = 0x02000004)
T39BC 001:870.728   CPU_ReadMem(4 bytes @ 0x40028008)
T39BC 001:871.498   Data:  00 00 00 00
T39BC 001:871.505 - 0.783ms returns 4 (0x4)
T39BC 001:871.510 JLINK_ReadMemEx(0x4002800C, 0x4 Bytes, Flags = 0x02000004)
T39BC 001:871.515   CPU_ReadMem(4 bytes @ 0x4002800C)
T39BC 001:872.237   Data:  00 00 00 00
T39BC 001:872.243 - 0.732ms returns 4 (0x4)
T39BC 001:872.250 JLINK_ReadMemEx(0x40028010, 0x4 Bytes, Flags = 0x02000004)
T39BC 001:872.254   CPU_ReadMem(4 bytes @ 0x40028010)
T39BC 001:872.947   Data:  00 00 00 00
T39BC 001:872.964 - 0.714ms returns 4 (0x4)
T39BC 001:872.971 JLINK_ReadMemEx(0x40028014, 0x4 Bytes, Flags = 0x02000004)
T39BC 001:872.975   CPU_ReadMem(4 bytes @ 0x40028014)
T39BC 001:873.677   Data:  00 00 00 00
T39BC 001:873.686 - 0.716ms returns 4 (0x4)
T39BC 001:873.693 JLINK_ReadMemEx(0x40028018, 0x4 Bytes, Flags = 0x02000004)
T39BC 001:873.697   CPU_ReadMem(4 bytes @ 0x40028018)
T39BC 001:874.389   Data:  00 00 00 00
T39BC 001:874.394 - 0.701ms returns 4 (0x4)
T39BC 001:874.400 JLINK_ReadMemEx(0x4002801C, 0x4 Bytes, Flags = 0x02000004)
T39BC 001:874.404   CPU_ReadMem(4 bytes @ 0x4002801C)
T39BC 001:875.098   Data:  00 00 00 00
T39BC 001:875.116 - 0.716ms returns 4 (0x4)
T39BC 001:875.168 JLINK_ReadMemEx(0x4002801C, 0x4 Bytes, Flags = 0x02000004)
T39BC 001:875.173   CPU_ReadMem(4 bytes @ 0x4002801C)
T39BC 001:875.847   Data:  00 00 00 00
T39BC 001:875.855 - 0.687ms returns 4 (0x4)
T39BC 001:875.861 JLINK_ReadMemEx(0x4002802C, 0x4 Bytes, Flags = 0x02000004)
T39BC 001:875.866   CPU_ReadMem(4 bytes @ 0x4002802C)
T39BC 001:876.595   Data:  00 00 00 00
T39BC 001:876.607 - 0.744ms returns 4 (0x4)
T39BC 001:876.616 JLINK_ReadMemEx(0x4002802C, 0x4 Bytes, Flags = 0x02000004)
T39BC 001:876.624   CPU_ReadMem(4 bytes @ 0x4002802C)
T39BC 001:877.273   Data:  00 00 00 00
T39BC 001:877.299 - 0.682ms returns 4 (0x4)
T39BC 001:877.308 JLINK_ReadMemEx(0x40028034, 0x28 Bytes, Flags = 0x02000004)
T39BC 001:877.313   CPU_ReadMem(40 bytes @ 0x40028034)
T39BC 001:878.206   Data:  00 00 00 00 00 00 00 00 00 00 00 00 00 00 00 00 ...
T39BC 001:878.218 - 0.910ms returns 40 (0x28)
T39BC 001:878.224 JLINK_ReadMemEx(0x40028034, 0x4 Bytes, Flags = 0x02000004)
T39BC 001:878.229   CPU_ReadMem(4 bytes @ 0x40028034)
T39BC 001:878.826   Data:  00 00 00 00
T39BC 001:878.836 - 0.611ms returns 4 (0x4)
T39BC 001:878.842 JLINK_ReadMemEx(0x40028038, 0x4 Bytes, Flags = 0x02000004)
T39BC 001:878.847   CPU_ReadMem(4 bytes @ 0x40028038)
T39BC 001:879.542   Data:  00 00 00 00
T39BC 001:879.550 - 0.707ms returns 4 (0x4)
T39BC 001:879.556 JLINK_ReadMemEx(0x4002803C, 0x4 Bytes, Flags = 0x02000004)
T39BC 001:879.560   CPU_ReadMem(4 bytes @ 0x4002803C)
T39BC 001:880.231   Data:  00 00 00 00
T39BC 001:880.236 - 0.680ms returns 4 (0x4)
T39BC 001:880.242 JLINK_ReadMemEx(0x40028040, 0x4 Bytes, Flags = 0x02000004)
T39BC 001:880.246   CPU_ReadMem(4 bytes @ 0x40028040)
T39BC 001:880.941   Data:  00 00 00 00
T39BC 001:880.952 - 0.710ms returns 4 (0x4)
T39BC 001:880.958 JLINK_ReadMemEx(0x40028044, 0x4 Bytes, Flags = 0x02000004)
T39BC 001:880.962   CPU_ReadMem(4 bytes @ 0x40028044)
T39BC 001:881.620   Data:  00 00 00 00
T39BC 001:881.629 - 0.671ms returns 4 (0x4)
T39BC 001:881.635 JLINK_ReadMemEx(0x40028048, 0x4 Bytes, Flags = 0x02000004)
T39BC 001:881.639   CPU_ReadMem(4 bytes @ 0x40028048)
T39BC 001:882.271   Data:  00 00 00 00
T39BC 001:882.276 - 0.641ms returns 4 (0x4)
T39BC 001:882.290 JLINK_ReadMemEx(0x4002804C, 0x4 Bytes, Flags = 0x02000004)
T39BC 001:882.294   CPU_ReadMem(4 bytes @ 0x4002804C)
T39BC 001:882.940   Data:  00 00 00 00
T39BC 001:882.952 - 0.663ms returns 4 (0x4)
T39BC 001:882.958 JLINK_ReadMemEx(0x40028050, 0x4 Bytes, Flags = 0x02000004)
T39BC 001:882.962   CPU_ReadMem(4 bytes @ 0x40028050)
T39BC 001:883.663   Data:  00 00 00 00
T39BC 001:883.670 - 0.712ms returns 4 (0x4)
T39BC 001:883.677 JLINK_ReadMemEx(0x40028054, 0x4 Bytes, Flags = 0x02000004)
T39BC 001:883.681   CPU_ReadMem(4 bytes @ 0x40028054)
T39BC 001:884.402   Data:  00 00 00 00
T39BC 001:884.408 - 0.731ms returns 4 (0x4)
T39BC 001:884.413 JLINK_ReadMemEx(0x40028058, 0x4 Bytes, Flags = 0x02000004)
T39BC 001:884.417   CPU_ReadMem(4 bytes @ 0x40028058)
T39BC 001:885.121   Data:  00 00 00 00
T39BC 001:885.130 - 0.716ms returns 4 (0x4)
T39BC 001:885.136 JLINK_ReadMemEx(0x4002805C, 0x4 Bytes, Flags = 0x02000004)
T39BC 001:885.140   CPU_ReadMem(4 bytes @ 0x4002805C)
T39BC 001:885.722   Data:  00 00 00 00
T39BC 001:885.730 - 0.593ms returns 4 (0x4)
T39BC 001:885.737 JLINK_ReadMemEx(0x4002805C, 0x4 Bytes, Flags = 0x02000004)
T39BC 001:885.742   CPU_ReadMem(4 bytes @ 0x4002805C)
T39BC 001:886.343   Data:  00 00 00 00
T39BC 001:886.349 - 0.612ms returns 4 (0x4)
T39BC 001:886.578 JLINK_ReadMemEx(0x40029000, 0x24 Bytes, Flags = 0x02000004)
T39BC 001:886.584   CPU_ReadMem(36 bytes @ 0x40029000)
T39BC 001:887.422   Data:  00 00 00 00 00 00 00 00 00 00 00 00 00 00 00 00 ...
T39BC 001:887.434 - 0.855ms returns 36 (0x24)
T39BC 001:887.439 JLINK_ReadMemEx(0x40029000, 0x4 Bytes, Flags = 0x02000004)
T39BC 001:887.443   CPU_ReadMem(4 bytes @ 0x40029000)
T39BC 001:888.099   Data:  00 00 00 00
T39BC 001:888.106 - 0.667ms returns 4 (0x4)
T39BC 001:888.111 JLINK_ReadMemEx(0x40029004, 0x4 Bytes, Flags = 0x02000004)
T39BC 001:888.117   CPU_ReadMem(4 bytes @ 0x40029004)
T39BC 001:888.790   Data:  00 00 00 00
T39BC 001:888.797 - 0.686ms returns 4 (0x4)
T39BC 001:888.802 JLINK_ReadMemEx(0x40029008, 0x4 Bytes, Flags = 0x02000004)
T39BC 001:888.806   CPU_ReadMem(4 bytes @ 0x40029008)
T39BC 001:889.497   Data:  00 00 00 00
T39BC 001:889.505 - 0.703ms returns 4 (0x4)
T39BC 001:889.510 JLINK_ReadMemEx(0x4002900C, 0x4 Bytes, Flags = 0x02000004)
T39BC 001:889.514   CPU_ReadMem(4 bytes @ 0x4002900C)
T39BC 001:890.263   Data:  00 00 00 00
T39BC 001:890.291 - 0.781ms returns 4 (0x4)
T39BC 001:890.296 JLINK_ReadMemEx(0x40029010, 0x4 Bytes, Flags = 0x02000004)
T39BC 001:890.300   CPU_ReadMem(4 bytes @ 0x40029010)
T39BC 001:890.978   Data:  00 00 00 00
T39BC 001:890.992 - 0.696ms returns 4 (0x4)
T39BC 001:890.997 JLINK_ReadMemEx(0x40029014, 0x4 Bytes, Flags = 0x02000004)
T39BC 001:891.001   CPU_ReadMem(4 bytes @ 0x40029014)
T39BC 001:891.656   Data:  00 00 00 00
T39BC 001:891.667 - 0.669ms returns 4 (0x4)
T39BC 001:891.672 JLINK_ReadMemEx(0x40029018, 0x4 Bytes, Flags = 0x02000004)
T39BC 001:891.676   CPU_ReadMem(4 bytes @ 0x40029018)
T39BC 001:892.317   Data:  00 00 00 00
T39BC 001:892.322 - 0.650ms returns 4 (0x4)
T39BC 001:892.327 JLINK_ReadMemEx(0x4002901C, 0x4 Bytes, Flags = 0x02000004)
T39BC 001:892.331   CPU_ReadMem(4 bytes @ 0x4002901C)
T39BC 001:892.960   Data:  00 00 00 00
T39BC 001:892.966 - 0.639ms returns 4 (0x4)
T39BC 001:892.971 JLINK_ReadMemEx(0x40029020, 0x4 Bytes, Flags = 0x02000004)
T39BC 001:892.976   CPU_ReadMem(4 bytes @ 0x40029020)
T39BC 001:893.643   Data:  00 00 00 00
T39BC 001:893.651 - 0.679ms returns 4 (0x4)
T39BC 001:893.656 JLINK_ReadMemEx(0x40029024, 0x4 Bytes, Flags = 0x02000004)
T39BC 001:893.660   CPU_ReadMem(4 bytes @ 0x40029024)
T39BC 001:894.275   Data:  00 00 00 00
T39BC 001:894.280 - 0.624ms returns 4 (0x4)
T39BC 001:894.296 JLINK_ReadMemEx(0x40029024, 0x4 Bytes, Flags = 0x02000004)
T39BC 001:894.300   CPU_ReadMem(4 bytes @ 0x40029024)
T39BC 001:894.993   Data:  00 00 00 00
T39BC 001:895.002 - 0.706ms returns 4 (0x4)
T39BC 001:895.007 JLINK_ReadMemEx(0x40029048, 0xC Bytes, Flags = 0x02000004)
T39BC 001:895.011   CPU_ReadMem(12 bytes @ 0x40029048)
T39BC 001:895.721   Data:  00 00 00 00 00 00 00 00 00 00 00 00
T39BC 001:895.732 - 0.725ms returns 12 (0xC)
T39BC 001:895.737 JLINK_ReadMemEx(0x40029048, 0x4 Bytes, Flags = 0x02000004)
T39BC 001:895.741   CPU_ReadMem(4 bytes @ 0x40029048)
T39BC 001:896.469   Data:  00 00 00 00
T39BC 001:896.477 - 0.739ms returns 4 (0x4)
T39BC 001:896.482 JLINK_ReadMemEx(0x4002904C, 0x4 Bytes, Flags = 0x02000004)
T39BC 001:896.486   CPU_ReadMem(4 bytes @ 0x4002904C)
T39BC 001:897.152   Data:  00 00 00 00
T39BC 001:897.157 - 0.675ms returns 4 (0x4)
T39BC 001:897.162 JLINK_ReadMemEx(0x40029050, 0x4 Bytes, Flags = 0x02000004)
T39BC 001:897.167   CPU_ReadMem(4 bytes @ 0x40029050)
T39BC 001:897.867   Data:  00 00 00 00
T39BC 001:897.874 - 0.712ms returns 4 (0x4)
T39BC 001:897.879 JLINK_ReadMemEx(0x40029054, 0x4 Bytes, Flags = 0x02000004)
T39BC 001:897.883   CPU_ReadMem(4 bytes @ 0x40029054)
T39BC 001:898.525   Data:  00 00 00 00
T39BC 001:898.532 - 0.652ms returns 4 (0x4)
T39BC 001:898.537 JLINK_ReadMemEx(0x40029054, 0x4 Bytes, Flags = 0x02000004)
T39BC 001:898.542   CPU_ReadMem(4 bytes @ 0x40029054)
T39BC 001:899.255   Data:  00 00 00 00
T39BC 001:899.264 - 0.727ms returns 4 (0x4)
T3830 001:899.544 JLINK_IsHalted()
T3830 001:900.248 - 0.705ms returns FALSE
T3830 002:001.276 JLINK_HasError()
T3830 002:001.299 JLINK_IsHalted()
T3830 002:002.165 - 0.865ms returns FALSE
T3830 002:102.278 JLINK_HasError()
T3830 002:102.294 JLINK_IsHalted()
T3830 002:103.183 - 0.886ms returns FALSE
T3830 002:203.264 JLINK_HasError()
T3830 002:203.280 JLINK_IsHalted()
T3830 002:204.147 - 0.866ms returns FALSE
T3830 002:304.859 JLINK_HasError()
T3830 002:304.889 JLINK_IsHalted()
T3830 002:305.545 - 0.655ms returns FALSE
T3830 002:405.855 JLINK_HasError()
T3830 002:405.882 JLINK_HasError()
T3830 002:405.886 JLINK_ReadMemU32(0xE0001004, 0x1 Items)
T3830 002:405.904   Data:  35 FF 1D 05
T3830 002:405.912   Debug reg: DWT_CYCCNT
T3830 002:405.917 - 0.030ms returns 1 (0x1)
T39BC 002:408.302 JLINK_ReadMemEx(0x40028000, 0x1C Bytes, Flags = 0x02000004)
T39BC 002:408.330   CPU_ReadMem(28 bytes @ 0x40028000)
T39BC 002:409.398   Data:  00 00 00 00 00 00 00 00 00 00 00 00 00 00 00 00 ...
T39BC 002:409.408 - 1.105ms returns 28 (0x1C)
T39BC 002:409.415 JLINK_ReadMemEx(0x40028000, 0x4 Bytes, Flags = 0x02000004)
T39BC 002:409.421   CPU_ReadMem(4 bytes @ 0x40028000)
T39BC 002:410.383   Data:  00 00 00 00
T39BC 002:410.400 - 0.985ms returns 4 (0x4)
T39BC 002:410.407 JLINK_ReadMemEx(0x40028004, 0x4 Bytes, Flags = 0x02000004)
T39BC 002:410.414   CPU_ReadMem(4 bytes @ 0x40028004)
T39BC 002:411.245   Data:  00 00 00 00
T39BC 002:411.256 - 0.849ms returns 4 (0x4)
T39BC 002:411.262 JLINK_ReadMemEx(0x40028008, 0x4 Bytes, Flags = 0x02000004)
T39BC 002:411.266   CPU_ReadMem(4 bytes @ 0x40028008)
T39BC 002:411.965   Data:  00 00 00 00
T39BC 002:411.971 - 0.709ms returns 4 (0x4)
T39BC 002:411.976 JLINK_ReadMemEx(0x4002800C, 0x4 Bytes, Flags = 0x02000004)
T39BC 002:411.980   CPU_ReadMem(4 bytes @ 0x4002800C)
T39BC 002:412.632   Data:  00 00 00 00
T39BC 002:412.646 - 0.670ms returns 4 (0x4)
T39BC 002:412.651 JLINK_ReadMemEx(0x40028010, 0x4 Bytes, Flags = 0x02000004)
T39BC 002:412.655   CPU_ReadMem(4 bytes @ 0x40028010)
T39BC 002:413.242   Data:  00 00 00 00
T39BC 002:413.249 - 0.598ms returns 4 (0x4)
T39BC 002:413.253 JLINK_ReadMemEx(0x40028014, 0x4 Bytes, Flags = 0x02000004)
T39BC 002:413.258   CPU_ReadMem(4 bytes @ 0x40028014)
T39BC 002:413.899   Data:  00 00 00 00
T39BC 002:413.904 - 0.650ms returns 4 (0x4)
T39BC 002:413.909 JLINK_ReadMemEx(0x40028018, 0x4 Bytes, Flags = 0x02000004)
T39BC 002:413.913   CPU_ReadMem(4 bytes @ 0x40028018)
T39BC 002:414.617   Data:  00 00 00 00
T39BC 002:414.625 - 0.716ms returns 4 (0x4)
T39BC 002:414.630 JLINK_ReadMemEx(0x4002801C, 0x4 Bytes, Flags = 0x02000004)
T39BC 002:414.634   CPU_ReadMem(4 bytes @ 0x4002801C)
T39BC 002:415.240   Data:  00 00 00 00
T39BC 002:415.258 - 0.628ms returns 4 (0x4)
T39BC 002:415.263 JLINK_ReadMemEx(0x4002801C, 0x4 Bytes, Flags = 0x02000004)
T39BC 002:415.267   CPU_ReadMem(4 bytes @ 0x4002801C)
T39BC 002:415.872   Data:  00 00 00 00
T39BC 002:415.878 - 0.614ms returns 4 (0x4)
T39BC 002:415.882 JLINK_ReadMemEx(0x4002802C, 0x4 Bytes, Flags = 0x02000004)
T39BC 002:415.887   CPU_ReadMem(4 bytes @ 0x4002802C)
T39BC 002:416.570   Data:  00 00 00 00
T39BC 002:416.578 - 0.695ms returns 4 (0x4)
T39BC 002:416.582 JLINK_ReadMemEx(0x4002802C, 0x4 Bytes, Flags = 0x02000004)
T39BC 002:416.586   CPU_ReadMem(4 bytes @ 0x4002802C)
T39BC 002:417.230   Data:  00 00 00 00
T39BC 002:417.241 - 0.658ms returns 4 (0x4)
T39BC 002:417.248 JLINK_ReadMemEx(0x40028034, 0x28 Bytes, Flags = 0x02000004)
T39BC 002:417.256   CPU_ReadMem(40 bytes @ 0x40028034)
T39BC 002:418.064   Data:  00 00 00 00 00 00 00 00 00 00 00 00 00 00 00 00 ...
T39BC 002:418.074 - 0.825ms returns 40 (0x28)
T39BC 002:418.081 JLINK_ReadMemEx(0x40028034, 0x4 Bytes, Flags = 0x02000004)
T39BC 002:418.088   CPU_ReadMem(4 bytes @ 0x40028034)
T39BC 002:418.792   Data:  00 00 00 00
T39BC 002:418.800 - 0.719ms returns 4 (0x4)
T39BC 002:418.806 JLINK_ReadMemEx(0x40028038, 0x4 Bytes, Flags = 0x02000004)
T39BC 002:418.811   CPU_ReadMem(4 bytes @ 0x40028038)
T39BC 002:419.510   Data:  00 00 00 00
T39BC 002:419.518 - 0.712ms returns 4 (0x4)
T39BC 002:419.523 JLINK_ReadMemEx(0x4002803C, 0x4 Bytes, Flags = 0x02000004)
T39BC 002:419.527   CPU_ReadMem(4 bytes @ 0x4002803C)
T39BC 002:420.262   Data:  00 00 00 00
T39BC 002:420.275 - 0.752ms returns 4 (0x4)
T39BC 002:420.283 JLINK_ReadMemEx(0x40028040, 0x4 Bytes, Flags = 0x02000004)
T39BC 002:420.287   CPU_ReadMem(4 bytes @ 0x40028040)
T39BC 002:420.909   Data:  00 00 00 00
T39BC 002:420.915 - 0.632ms returns 4 (0x4)
T39BC 002:420.921 JLINK_ReadMemEx(0x40028044, 0x4 Bytes, Flags = 0x02000004)
T39BC 002:420.934   CPU_ReadMem(4 bytes @ 0x40028044)
T39BC 002:421.638   Data:  00 00 00 00
T39BC 002:421.655 - 0.734ms returns 4 (0x4)
T39BC 002:421.661 JLINK_ReadMemEx(0x40028048, 0x4 Bytes, Flags = 0x02000004)
T39BC 002:421.666   CPU_ReadMem(4 bytes @ 0x40028048)
T39BC 002:422.263   Data:  00 00 00 00
T39BC 002:422.281 - 0.619ms returns 4 (0x4)
T39BC 002:422.287 JLINK_ReadMemEx(0x4002804C, 0x4 Bytes, Flags = 0x02000004)
T39BC 002:422.291   CPU_ReadMem(4 bytes @ 0x4002804C)
T39BC 002:422.920   Data:  00 00 00 00
T39BC 002:422.930 - 0.643ms returns 4 (0x4)
T39BC 002:422.936 JLINK_ReadMemEx(0x40028050, 0x4 Bytes, Flags = 0x02000004)
T39BC 002:422.940   CPU_ReadMem(4 bytes @ 0x40028050)
T39BC 002:423.594   Data:  00 00 00 00
T39BC 002:423.616 - 0.680ms returns 4 (0x4)
T39BC 002:423.622 JLINK_ReadMemEx(0x40028054, 0x4 Bytes, Flags = 0x02000004)
T39BC 002:423.626   CPU_ReadMem(4 bytes @ 0x40028054)
T39BC 002:424.292   Data:  00 00 00 00
T39BC 002:424.303 - 0.681ms returns 4 (0x4)
T39BC 002:424.309 JLINK_ReadMemEx(0x40028058, 0x4 Bytes, Flags = 0x02000004)
T39BC 002:424.313   CPU_ReadMem(4 bytes @ 0x40028058)
T39BC 002:424.997   Data:  00 00 00 00
T39BC 002:425.002 - 0.693ms returns 4 (0x4)
T39BC 002:425.009 JLINK_ReadMemEx(0x4002805C, 0x4 Bytes, Flags = 0x02000004)
T39BC 002:425.014   CPU_ReadMem(4 bytes @ 0x4002805C)
T39BC 002:425.594   Data:  00 00 00 00
T39BC 002:425.606 - 0.597ms returns 4 (0x4)
T39BC 002:425.613 JLINK_ReadMemEx(0x4002805C, 0x4 Bytes, Flags = 0x02000004)
T39BC 002:425.617   CPU_ReadMem(4 bytes @ 0x4002805C)
T39BC 002:426.254   Data:  00 00 00 00
T39BC 002:426.265 - 0.651ms returns 4 (0x4)
T39BC 002:426.514 JLINK_ReadMemEx(0x40029000, 0x24 Bytes, Flags = 0x02000004)
T39BC 002:426.522   CPU_ReadMem(36 bytes @ 0x40029000)
T39BC 002:427.386   Data:  00 00 00 00 00 00 00 00 00 00 00 00 00 00 00 00 ...
T39BC 002:427.396 - 0.882ms returns 36 (0x24)
T39BC 002:427.403 JLINK_ReadMemEx(0x40029000, 0x4 Bytes, Flags = 0x02000004)
T39BC 002:427.410   CPU_ReadMem(4 bytes @ 0x40029000)
T39BC 002:428.051   Data:  00 00 00 00
T39BC 002:428.057 - 0.653ms returns 4 (0x4)
T39BC 002:428.062 JLINK_ReadMemEx(0x40029004, 0x4 Bytes, Flags = 0x02000004)
T39BC 002:428.066   CPU_ReadMem(4 bytes @ 0x40029004)
T39BC 002:428.766   Data:  00 00 00 00
T39BC 002:428.776 - 0.714ms returns 4 (0x4)
T39BC 002:428.781 JLINK_ReadMemEx(0x40029008, 0x4 Bytes, Flags = 0x02000004)
T39BC 002:428.785   CPU_ReadMem(4 bytes @ 0x40029008)
T39BC 002:429.470   Data:  00 00 00 00
T39BC 002:429.482 - 0.701ms returns 4 (0x4)
T39BC 002:429.487 JLINK_ReadMemEx(0x4002900C, 0x4 Bytes, Flags = 0x02000004)
T39BC 002:429.492   CPU_ReadMem(4 bytes @ 0x4002900C)
T39BC 002:430.122   Data:  00 00 00 00
T39BC 002:430.131 - 0.643ms returns 4 (0x4)
T39BC 002:430.138 JLINK_ReadMemEx(0x40029010, 0x4 Bytes, Flags = 0x02000004)
T39BC 002:430.144   CPU_ReadMem(4 bytes @ 0x40029010)
T39BC 002:430.828   Data:  00 00 00 00
T39BC 002:430.834 - 0.696ms returns 4 (0x4)
T39BC 002:430.839 JLINK_ReadMemEx(0x40029014, 0x4 Bytes, Flags = 0x02000004)
T39BC 002:430.844   CPU_ReadMem(4 bytes @ 0x40029014)
T39BC 002:431.542   Data:  00 00 00 00
T39BC 002:431.555 - 0.716ms returns 4 (0x4)
T39BC 002:431.560 JLINK_ReadMemEx(0x40029018, 0x4 Bytes, Flags = 0x02000004)
T39BC 002:431.564   CPU_ReadMem(4 bytes @ 0x40029018)
T39BC 002:432.227   Data:  00 00 00 00
T39BC 002:432.232 - 0.672ms returns 4 (0x4)
T39BC 002:432.237 JLINK_ReadMemEx(0x4002901C, 0x4 Bytes, Flags = 0x02000004)
T39BC 002:432.242   CPU_ReadMem(4 bytes @ 0x4002901C)
T39BC 002:432.860   Data:  00 00 00 00
T39BC 002:432.865 - 0.628ms returns 4 (0x4)
T39BC 002:432.870 JLINK_ReadMemEx(0x40029020, 0x4 Bytes, Flags = 0x02000004)
T39BC 002:432.874   CPU_ReadMem(4 bytes @ 0x40029020)
T39BC 002:433.553   Data:  00 00 00 00
T39BC 002:433.559 - 0.688ms returns 4 (0x4)
T39BC 002:433.564 JLINK_ReadMemEx(0x40029024, 0x4 Bytes, Flags = 0x02000004)
T39BC 002:433.569   CPU_ReadMem(4 bytes @ 0x40029024)
T39BC 002:434.237   Data:  00 00 00 00
T39BC 002:434.243 - 0.678ms returns 4 (0x4)
T39BC 002:434.248 JLINK_ReadMemEx(0x40029024, 0x4 Bytes, Flags = 0x02000004)
T39BC 002:434.255   CPU_ReadMem(4 bytes @ 0x40029024)
T39BC 002:434.879   Data:  00 00 00 00
T39BC 002:434.885 - 0.637ms returns 4 (0x4)
T39BC 002:434.890 JLINK_ReadMemEx(0x40029048, 0xC Bytes, Flags = 0x02000004)
T39BC 002:434.894   CPU_ReadMem(12 bytes @ 0x40029048)
T39BC 002:435.609   Data:  00 00 00 00 00 00 00 00 00 00 00 00
T39BC 002:435.615 - 0.725ms returns 12 (0xC)
T39BC 002:435.620 JLINK_ReadMemEx(0x40029048, 0x4 Bytes, Flags = 0x02000004)
T39BC 002:435.624   CPU_ReadMem(4 bytes @ 0x40029048)
T39BC 002:436.272   Data:  00 00 00 00
T39BC 002:436.278 - 0.658ms returns 4 (0x4)
T39BC 002:436.283 JLINK_ReadMemEx(0x4002904C, 0x4 Bytes, Flags = 0x02000004)
T39BC 002:436.287   CPU_ReadMem(4 bytes @ 0x4002904C)
T39BC 002:436.927   Data:  00 00 00 00
T39BC 002:436.933 - 0.650ms returns 4 (0x4)
T39BC 002:436.938 JLINK_ReadMemEx(0x40029050, 0x4 Bytes, Flags = 0x02000004)
T39BC 002:436.942   CPU_ReadMem(4 bytes @ 0x40029050)
T39BC 002:437.581   Data:  00 00 00 00
T39BC 002:437.586 - 0.648ms returns 4 (0x4)
T39BC 002:437.591 JLINK_ReadMemEx(0x40029054, 0x4 Bytes, Flags = 0x02000004)
T39BC 002:437.595   CPU_ReadMem(4 bytes @ 0x40029054)
T39BC 002:438.272   Data:  00 00 00 00
T39BC 002:438.277 - 0.686ms returns 4 (0x4)
T39BC 002:438.282 JLINK_ReadMemEx(0x40029054, 0x4 Bytes, Flags = 0x02000004)
T39BC 002:438.286   CPU_ReadMem(4 bytes @ 0x40029054)
T39BC 002:438.923   Data:  00 00 00 00
T39BC 002:438.928 - 0.646ms returns 4 (0x4)
T3830 002:439.149 JLINK_IsHalted()
T3830 002:439.832 - 0.682ms returns FALSE
T3830 002:540.210 JLINK_HasError()
T3830 002:540.232 JLINK_IsHalted()
T3830 002:541.165 - 0.932ms returns FALSE
T3830 002:642.164 JLINK_HasError()
T3830 002:642.180 JLINK_IsHalted()
